
**** 11/14/20 13:10:29 ******* PSpice Lite (March 2016) ******* ID# 10813 ****

 ** Profile: "SCHEMATIC1-lab9-1"  [ c:\users\crist\documents\csun\ece240\pspice\lab9\lab9-1-pspicefiles\schematic1\lab9-1.sim ] 


 ****     CIRCUIT DESCRIPTION


******************************************************************************




** Creating circuit file "lab9-1.cir" 
** WARNING: THIS AUTOMATICALLY GENERATED FILE MAY BE OVERWRITTEN BY SUBSEQUENT SIMULATIONS

*Libraries: 
* Profile Libraries :
* Local Libraries :
* From [PSPICE NETLIST] section of C:\SPB_DATA\cdssetup\OrCAD_PSpice\17.2.0\PSpice.ini file:
.lib "nomd.lib" 

*Analysis directives: 
.TRAN  0 3ms 0 1us 
.OPTIONS ADVCONV
.PROBE64 V(alias(*)) I(alias(*)) W(alias(*)) D(alias(*)) NOISE(alias(*)) 
.INC "..\SCHEMATIC1.net" 



**** INCLUDING SCHEMATIC1.net ****
* source LAB9-1
V_V1         N00128 0  
+PULSE 1 0 0 0 0 .5ms 1ms
R_R         0 N00777  680 TC=0,0 
L_L1         N00128 N00777  68mH  

**** RESUMING lab9-1.cir ****
.END

**** 11/14/20 13:10:29 ******* PSpice Lite (March 2016) ******* ID# 10813 ****

 ** Profile: "SCHEMATIC1-lab9-1"  [ c:\users\crist\documents\csun\ece240\pspice\lab9\lab9-1-pspicefiles\schematic1\lab9-1.sim ] 


 ****     INITIAL TRANSIENT SOLUTION       TEMPERATURE =   27.000 DEG C


******************************************************************************



 NODE   VOLTAGE     NODE   VOLTAGE     NODE   VOLTAGE     NODE   VOLTAGE


(N00128)    1.0000 (N00777)    1.0000 




    VOLTAGE SOURCE CURRENTS
    NAME         CURRENT

    V_V1        -1.471E-03

    TOTAL POWER DISSIPATION   1.47E-03  WATTS



          JOB CONCLUDED

**** 11/14/20 13:10:29 ******* PSpice Lite (March 2016) ******* ID# 10813 ****

 ** Profile: "SCHEMATIC1-lab9-1"  [ c:\users\crist\documents\csun\ece240\pspice\lab9\lab9-1-pspicefiles\schematic1\lab9-1.sim ] 


 ****     JOB STATISTICS SUMMARY


******************************************************************************



  Total job time (using Solver 1)   =         .02
