
**** 10/22/20 22:19:15 ******* PSpice Lite (March 2016) ******* ID# 10813 ****

 ** Profile: "SCHEMATIC1-lab7"  [ C:\Users\crist\Documents\CSUN\ECE240\PSPICE\LAB8\lab8in-PSpiceFiles\SCHEMATIC1\lab7.sim ] 


 ****     CIRCUIT DESCRIPTION


******************************************************************************




** Creating circuit file "lab7.cir" 
** WARNING: THIS AUTOMATICALLY GENERATED FILE MAY BE OVERWRITTEN BY SUBSEQUENT SIMULATIONS

*Libraries: 
* Profile Libraries :
* Local Libraries :
* From [PSPICE NETLIST] section of C:\SPB_DATA\cdssetup\OrCAD_PSpice\17.2.0\PSpice.ini file:
.lib "nomd.lib" 

*Analysis directives: 
.TRAN  0 3ms 0 1us 
.OPTIONS ADVCONV
.PROBE64 V(alias(*)) I(alias(*)) W(alias(*)) D(alias(*)) NOISE(alias(*)) 
.INC "..\SCHEMATIC1.net" 



**** INCLUDING SCHEMATIC1.net ****
* source LAB8IN
X_U1         0 N00894 N00962 N01030 N01128 uA741
V_V1         N00859 0  AC 0
+SIN 0 .3V 1kHz 0 0 0
R_R1         N00859 N00894  10k TC=0,0 
R_R2         N01030 N01080  56k TC=0,0 
R_R3         N00894 N01128  100k TC=0,0 
R_R4         N00962 N00969  56k TC=0,0 
V_V2         N00969 0 15Vdc
V_V3         N01080 0 -15Vdc

**** RESUMING lab7.cir ****
.END

**** 10/22/20 22:19:15 ******* PSpice Lite (March 2016) ******* ID# 10813 ****

 ** Profile: "SCHEMATIC1-lab7"  [ C:\Users\crist\Documents\CSUN\ECE240\PSPICE\LAB8\lab8in-PSpiceFiles\SCHEMATIC1\lab7.sim ] 


 ****     Diode MODEL PARAMETERS


******************************************************************************




               X_U1.dx         X_U1.dy         
          IS  800.000000E-18  800.000000E-18 
          RS    1               1.000000E-03 
         CJO                   10.000000E-12 


**** 10/22/20 22:19:15 ******* PSpice Lite (March 2016) ******* ID# 10813 ****

 ** Profile: "SCHEMATIC1-lab7"  [ C:\Users\crist\Documents\CSUN\ECE240\PSPICE\LAB8\lab8in-PSpiceFiles\SCHEMATIC1\lab7.sim ] 


 ****     BJT MODEL PARAMETERS


******************************************************************************




               X_U1.qx         
               NPN             
       LEVEL    1            
          IS  800.000000E-18 
          BF   93.75         
          NF    1            
          BR    1            
          NR    1            
         ISS    0            
          RE    0            
          RC    0            
         CJE    0            
         VJE     .75         
         CJC    0            
         VJC     .75         
         MJC     .33         
        XCJC    1            
         CJS    0            
         VJS     .75         
          KF    0            
          AF    1            
          CN    2.42         
           D     .87         


**** 10/22/20 22:19:15 ******* PSpice Lite (March 2016) ******* ID# 10813 ****

 ** Profile: "SCHEMATIC1-lab7"  [ C:\Users\crist\Documents\CSUN\ECE240\PSPICE\LAB8\lab8in-PSpiceFiles\SCHEMATIC1\lab7.sim ] 


 ****     INITIAL TRANSIENT SOLUTION       TEMPERATURE =   27.000 DEG C


******************************************************************************



 NODE   VOLTAGE     NODE   VOLTAGE     NODE   VOLTAGE     NODE   VOLTAGE


(N00859)    0.0000 (N00894) 19.42E-06 (N00962)    1.9809 (N00969)   15.0000     

(N01030)   -1.9694 (N01080)  -15.0000 (N01128)     .0082 (X_U1.6)-229.8E-09     

(X_U1.7)     .0082 (X_U1.8)     .0082 (X_U1.9)    0.0000 (X_U1.10)    -.6077    

(X_U1.11)    1.9413                   (X_U1.12)    1.9413                       

(X_U1.13)    -.5938                   (X_U1.14)    -.5938                       

(X_U1.53)     .9809                   (X_U1.54)    -.9694                       

(X_U1.90) 81.71E-06                   (X_U1.91)   40.0000                       

(X_U1.92)  -40.0000                   (X_U1.99)     .0058                   




    VOLTAGE SOURCE CURRENTS
    NAME         CURRENT

    V_V1         1.942E-09
    V_V2        -2.325E-04
    V_V3         2.327E-04
    X_U1.vb     -2.298E-12
    X_U1.vc      9.735E-13
    X_U1.ve      1.111E-12
    X_U1.vlim    8.171E-08
    X_U1.vlp    -4.000E-11
    X_U1.vln    -4.000E-11

    TOTAL POWER DISSIPATION   6.98E-03  WATTS



          JOB CONCLUDED

**** 10/22/20 22:19:15 ******* PSpice Lite (March 2016) ******* ID# 10813 ****

 ** Profile: "SCHEMATIC1-lab7"  [ C:\Users\crist\Documents\CSUN\ECE240\PSPICE\LAB8\lab8in-PSpiceFiles\SCHEMATIC1\lab7.sim ] 


 ****     JOB STATISTICS SUMMARY


******************************************************************************



  Total job time (using Solver 1)   =         .20
