
**** 10/22/20 16:50:42 ******* PSpice Lite (March 2016) ******* ID# 10813 ****

 ** Profile: "SCHEMATIC1-lab6-5"  [ c:\users\crist\documents\csun\ece240\pspice\lab6\lab6-5max-pspicefiles\schematic1\lab6-5.sim ] 


 ****     CIRCUIT DESCRIPTION


******************************************************************************




** Creating circuit file "lab6-5.cir" 
** WARNING: THIS AUTOMATICALLY GENERATED FILE MAY BE OVERWRITTEN BY SUBSEQUENT SIMULATIONS

*Libraries: 
* Profile Libraries :
* Local Libraries :
* From [PSPICE NETLIST] section of C:\SPB_DATA\cdssetup\OrCAD_PSpice\17.2.0\PSpice.ini file:
.lib "nomd.lib" 

*Analysis directives: 
.TRAN  0 3ms 0 1us 
.OPTIONS ADVCONV
.PROBE64 V(alias(*)) I(alias(*)) W(alias(*)) D(alias(*)) NOISE(alias(*)) 
.INC "..\SCHEMATIC1.net" 



**** INCLUDING SCHEMATIC1.net ****
* source LAB6-5MAX
V_V1         N00175 0 10Vdc
R_R1         N00135 N00175  2.7k TC=0,0 
R_R2         N00141 N00175  3.3k TC=0,0 
R_R3         N00135 N00141  2.7k TC=0,0 
R_R4         0 N00135  4.7k TC=0,0 
R_R5         0 N00141  1k TC=0,0 

**** RESUMING lab6-5.cir ****
.END

**** 10/22/20 16:50:42 ******* PSpice Lite (March 2016) ******* ID# 10813 ****

 ** Profile: "SCHEMATIC1-lab6-5"  [ c:\users\crist\documents\csun\ece240\pspice\lab6\lab6-5max-pspicefiles\schematic1\lab6-5.sim ] 


 ****     INITIAL TRANSIENT SOLUTION       TEMPERATURE =   27.000 DEG C


******************************************************************************



 NODE   VOLTAGE     NODE   VOLTAGE     NODE   VOLTAGE     NODE   VOLTAGE


(N00135)    5.0192 (N00141)    2.9218 (N00175)   10.0000 




    VOLTAGE SOURCE CURRENTS
    NAME         CURRENT

    V_V1        -3.990E-03

    TOTAL POWER DISSIPATION   3.99E-02  WATTS



          JOB CONCLUDED

**** 10/22/20 16:50:42 ******* PSpice Lite (March 2016) ******* ID# 10813 ****

 ** Profile: "SCHEMATIC1-lab6-5"  [ c:\users\crist\documents\csun\ece240\pspice\lab6\lab6-5max-pspicefiles\schematic1\lab6-5.sim ] 


 ****     JOB STATISTICS SUMMARY


******************************************************************************



  Total job time (using Solver 1)   =         .02
