
**** 10/22/20 23:03:58 ******* PSpice Lite (March 2016) ******* ID# 10813 ****

 ** Profile: "SCHEMATIC1-lab8-2"  [ C:\Users\crist\Documents\CSUN\ECE240\PSPICE\LAB8\lab8-2-PSpiceFiles\SCHEMATIC1\lab8-2.sim ] 


 ****     CIRCUIT DESCRIPTION


******************************************************************************




** Creating circuit file "lab8-2.cir" 
** WARNING: THIS AUTOMATICALLY GENERATED FILE MAY BE OVERWRITTEN BY SUBSEQUENT SIMULATIONS

*Libraries: 
* Profile Libraries :
* Local Libraries :
* From [PSPICE NETLIST] section of C:\SPB_DATA\cdssetup\OrCAD_PSpice\17.2.0\PSpice.ini file:
.lib "nomd.lib" 

*Analysis directives: 
.TRAN  0 3ms 0 1us 
.OPTIONS ADVCONV
.PROBE64 V(alias(*)) I(alias(*)) W(alias(*)) D(alias(*)) NOISE(alias(*)) 
.INC "..\SCHEMATIC1.net" 



**** INCLUDING SCHEMATIC1.net ****
* source LAB8-2
V_V3         N01479 0 15Vdc
X_U1         N01573 N01623 N01469 N01649 N01623 uA741
V_V2         N01679 0 15Vdc
R_R4         N01649 N01679  56k TC=0,0 
V_V1         N01573 0  AC 0
+SIN 0 .3V 1kHz 0 0 0
R_R2         N01469 N01479  56k TC=0,0 
R_R1         0 N01623  10k TC=0,0 

**** RESUMING lab8-2.cir ****
.END

**** 10/22/20 23:03:58 ******* PSpice Lite (March 2016) ******* ID# 10813 ****

 ** Profile: "SCHEMATIC1-lab8-2"  [ C:\Users\crist\Documents\CSUN\ECE240\PSPICE\LAB8\lab8-2-PSpiceFiles\SCHEMATIC1\lab8-2.sim ] 


 ****     Diode MODEL PARAMETERS


******************************************************************************




               X_U1.dx         X_U1.dy         
          IS  800.000000E-18  800.000000E-18 
          RS    1               1.000000E-03 
         CJO                   10.000000E-12 


**** 10/22/20 23:03:58 ******* PSpice Lite (March 2016) ******* ID# 10813 ****

 ** Profile: "SCHEMATIC1-lab8-2"  [ C:\Users\crist\Documents\CSUN\ECE240\PSPICE\LAB8\lab8-2-PSpiceFiles\SCHEMATIC1\lab8-2.sim ] 


 ****     BJT MODEL PARAMETERS


******************************************************************************




               X_U1.qx         
               NPN             
       LEVEL    1            
          IS  800.000000E-18 
          BF   93.75         
          NF    1            
          BR    1            
          NR    1            
         ISS    0            
          RE    0            
          RC    0            
         CJE    0            
         VJE     .75         
         CJC    0            
         VJC     .75         
         MJC     .33         
        XCJC    1            
         CJS    0            
         VJS     .75         
          KF    0            
          AF    1            
          CN    2.42         
           D     .87         


**** 10/22/20 23:03:58 ******* PSpice Lite (March 2016) ******* ID# 10813 ****

 ** Profile: "SCHEMATIC1-lab8-2"  [ C:\Users\crist\Documents\CSUN\ECE240\PSPICE\LAB8\lab8-2-PSpiceFiles\SCHEMATIC1\lab8-2.sim ] 


 ****     INITIAL TRANSIENT SOLUTION       TEMPERATURE =   27.000 DEG C


******************************************************************************



 NODE   VOLTAGE     NODE   VOLTAGE     NODE   VOLTAGE     NODE   VOLTAGE


(N01469)    3.2445 (N01479)   15.0000 (N01573)    0.0000 (N01623) 317.3E-06     

(N01649)    -.2981 (N01679)   15.0000 (X_U1.6)     .0047 (X_U1.7)    -.0238     

(X_U1.8)    -.0238 (X_U1.9)    0.0000 (X_U1.10)    -.6072                       

(X_U1.11)    3.2050                   (X_U1.12)    3.2053                       

(X_U1.13)    -.5934                   (X_U1.14)    -.5935                       

(X_U1.53)    2.2445                   (X_U1.54)     .7019                       

(X_U1.90)    -.4833                   (X_U1.91)   40.0000                       

(X_U1.92)  -40.0000                   (X_U1.99)    1.4732                   




    VOLTAGE SOURCE CURRENTS
    NAME         CURRENT

    V_V3        -2.099E-04
    V_V2        -2.732E-04
    V_V1        -7.885E-08
    X_U1.vb      4.702E-08
    X_U1.vc      2.245E-12
    X_U1.ve     -4.834E-04
    X_U1.vlim   -4.833E-04
    X_U1.vlp    -4.048E-11
    X_U1.vln    -3.952E-11

    TOTAL POWER DISSIPATION   7.73E-03  WATTS



          JOB CONCLUDED

**** 10/22/20 23:03:58 ******* PSpice Lite (March 2016) ******* ID# 10813 ****

 ** Profile: "SCHEMATIC1-lab8-2"  [ C:\Users\crist\Documents\CSUN\ECE240\PSPICE\LAB8\lab8-2-PSpiceFiles\SCHEMATIC1\lab8-2.sim ] 


 ****     JOB STATISTICS SUMMARY


******************************************************************************



  Total job time (using Solver 1)   =         .20
