
**** 10/17/20 15:30:41 ******* PSpice Lite (March 2016) ******* ID# 10813 ****

 ** Profile: "SCHEMATIC1-lab5"  [ C:\Users\crist\Documents\CSUN\ECE240\PSPICE\LAB5\lab5-pspicefiles\schematic1\lab5.sim ] 


 ****     CIRCUIT DESCRIPTION


******************************************************************************




** Creating circuit file "lab5.cir" 
** WARNING: THIS AUTOMATICALLY GENERATED FILE MAY BE OVERWRITTEN BY SUBSEQUENT SIMULATIONS

*Libraries: 
* Profile Libraries :
* Local Libraries :
* From [PSPICE NETLIST] section of C:\SPB_DATA\cdssetup\OrCAD_PSpice\17.2.0\PSpice.ini file:
.lib "nomd.lib" 

*Analysis directives: 
.TRAN  0 3ms 0 1us 
.OPTIONS ADVCONV
.PROBE64 V(alias(*)) I(alias(*)) W(alias(*)) D(alias(*)) NOISE(alias(*)) 
.INC "..\SCHEMATIC1.net" 



**** INCLUDING SCHEMATIC1.net ****
* source LAB5
V_V1         N00115 0 10Vdc
R_R1         N00115 N00122  3k TC=0,0 
R_R2         0 N00122  9k TC=0,0 
R_R3         N00122 N00136  4.5k TC=0,0 
R_R4         0 N00136  4.5k TC=0,0 

**** RESUMING lab5.cir ****
.END

**** 10/17/20 15:30:41 ******* PSpice Lite (March 2016) ******* ID# 10813 ****

 ** Profile: "SCHEMATIC1-lab5"  [ C:\Users\crist\Documents\CSUN\ECE240\PSPICE\LAB5\lab5-pspicefiles\schematic1\lab5.sim ] 


 ****     INITIAL TRANSIENT SOLUTION       TEMPERATURE =   27.000 DEG C


******************************************************************************



 NODE   VOLTAGE     NODE   VOLTAGE     NODE   VOLTAGE     NODE   VOLTAGE


(N00115)   10.0000 (N00122)    6.0000 (N00136)    3.0000 




    VOLTAGE SOURCE CURRENTS
    NAME         CURRENT

    V_V1        -1.333E-03

    TOTAL POWER DISSIPATION   1.33E-02  WATTS



          JOB CONCLUDED

**** 10/17/20 15:30:41 ******* PSpice Lite (March 2016) ******* ID# 10813 ****

 ** Profile: "SCHEMATIC1-lab5"  [ C:\Users\crist\Documents\CSUN\ECE240\PSPICE\LAB5\lab5-pspicefiles\schematic1\lab5.sim ] 


 ****     JOB STATISTICS SUMMARY


******************************************************************************



  Total job time (using Solver 1)   =         .03
