
**** 09/30/20 14:11:16 ******* PSpice 17.4.0 (Nov 2018) ******* ID# 0 ********

 ** Profile: "SCHEMATIC1-lab3"  [ c:\users\crist\documents\csun\ece240\pspice\lab3\lab04-pspicefiles\schematic1\lab3.sim ] 


 ****     CIRCUIT DESCRIPTION


******************************************************************************




** Creating circuit file "lab3.cir" 
** WARNING: THIS AUTOMATICALLY GENERATED FILE MAY BE OVERWRITTEN BY SUBSEQUENT SIMULATIONS

*Libraries: 
* Profile Libraries :
* Local Libraries :
* From [PSPICE NETLIST] section of C:\SPB_DATA\cdssetup\OrCAD_PSpice\17.4.0\PSpice.ini file:
.lib "nom.lib" 

*Analysis directives: 
.TRAN  0 3ms 0 1us 
.OPTIONS ADVCONV
.PROBE64 V(alias(*)) I(alias(*)) W(alias(*)) D(alias(*)) NOISE(alias(*)) 
.INC "..\SCHEMATIC1.net" 



**** INCLUDING SCHEMATIC1.net ****
* source LAB04
V_V1         N00115 N00130 36Vdc
R_R1         N00115 N00165  12 TC=0,0 
R_R2         N00115 0  3 TC=0,0 
R_R3         0 N00130  6 TC=0,0 
R_R4         N00130 N00165  6 TC=0,0 
I_I1         0 N00165 DC 6Adc  

**** RESUMING lab3.cir ****
.END

**** 09/30/20 14:11:16 ******* PSpice 17.4.0 (Nov 2018) ******* ID# 0 ********

 ** Profile: "SCHEMATIC1-lab3"  [ c:\users\crist\documents\csun\ece240\pspice\lab3\lab04-pspicefiles\schematic1\lab3.sim ] 


 ****     INITIAL TRANSIENT SOLUTION       TEMPERATURE =   27.000 DEG C


******************************************************************************



 NODE   VOLTAGE     NODE   VOLTAGE     NODE   VOLTAGE     NODE   VOLTAGE


(N00115)   24.0000 (N00130)  -12.0000 (N00165)   24.0000 




    VOLTAGE SOURCE CURRENTS
    NAME         CURRENT

    V_V1        -8.000E+00

    TOTAL POWER DISSIPATION   2.88E+02  WATTS



          JOB CONCLUDED

**** 09/30/20 14:11:16 ******* PSpice 17.4.0 (Nov 2018) ******* ID# 0 ********

 ** Profile: "SCHEMATIC1-lab3"  [ c:\users\crist\documents\csun\ece240\pspice\lab3\lab04-pspicefiles\schematic1\lab3.sim ] 


 ****     JOB STATISTICS SUMMARY


******************************************************************************



  Total job time (using Solver 1)   =         .02
